
T02CC 000:092 SEGGER J-Link V6.12a Log File (0001ms, 0036ms total)
T02CC 000:092 DLL Compiled: Dec  2 2016 16:44:26 (0001ms, 0036ms total)
T02CC 000:092 Logging started @ 2020-12-20 21:13 (0001ms, 0036ms total)
T02CC 000:093 JLINK_SetWarnOutHandler(...) (0000ms, 0036ms total)
T02CC 000:093 JLINK_OpenEx(...)
Firmware: J-Link ARM-OB STM32 compiled Aug 22 2012 19:52:04
Hardware: V7.00
S/N: 20090928
Feature(s): RDI,FlashDL,FlashBP,JFlash,GDBFullWEBSRV Webserver running on local port 19080 (0018ms, 0054ms total)
T02CC 000:093   returns O.K. (0018ms, 0054ms total)
T02CC 000:111 JLINK_SetErrorOutHandler(...) (0000ms, 0054ms total)
T02CC 000:111 JLINK_ExecCommand("ProjectFile = "C:\Users\heye\Desktop\BT_Study\BT_STACK\bluetooth_stack\project\stm32f10x_bb_bt\JLinkSettings.ini"", ...). C:\Program Files (x86)\SEGGER\JLink_V612a\JLinkDevices.xml evaluated successfully.  returns 0x00 (0114ms, 0168ms total)
T02CC 000:229 JLINK_ExecCommand("Device = STM32F103VE", ...). Device "STM32F103VE" selected.  returns 0x00 (0005ms, 0173ms total)
T02CC 000:234 JLINK_ExecCommand("DisableConnectionTimeout", ...).   returns 0x01 (0000ms, 0173ms total)
T02CC 000:234 JLINK_GetHardwareVersion()  returns 0x11170 (0000ms, 0173ms total)
T02CC 000:234 JLINK_GetDLLVersion()  returns 61201 (0000ms, 0173ms total)
T02CC 000:234 JLINK_GetFirmwareString(...) (0000ms, 0173ms total)
T02CC 000:246 JLINK_GetDLLVersion()  returns 61201 (0000ms, 0173ms total)
T02CC 000:246 JLINK_GetCompileDateTime() (0000ms, 0173ms total)
T02CC 000:250 JLINK_GetFirmwareString(...) (0000ms, 0173ms total)
T02CC 000:256 JLINK_GetHardwareVersion()  returns 0x11170 (0000ms, 0173ms total)
T02CC 000:269 JLINK_TIF_Select(JLINKARM_TIF_SWD)  returns 0x00 (0001ms, 0174ms total)
T02CC 000:270 JLINK_SetSpeed(5000) (0001ms, 0175ms total)
T02CC 000:271 JLINK_GetId() >0x108 TIF>Found SWD-DP with ID 0x1BA01477 >0x0D TIF> >0x28 TIF> >0x0D TIF> >0x28 TIF> >0x0D TIF> >0x28 TIF> >0x0D TIF> >0x28 TIF> >0x0D TIF> >0x21 TIF> >0x0D TIF> >0x28 TIF> >0x0D TIF> >0x28 TIF> >0x0D TIF> >0x28 TIF> >0x0D TIF> >0x21 TIF> >0x0D TIF> >0x21 TIF> >0x0D TIF> >0x28 TIF> >0x0D TIF> >0x21 TIF> >0x0D TIF> >0x21 TIF> >0x0D TIF> >0x28 TIF> >0x0D TIF> >0x21 TIF> >0x0D TIF> >0x21 TIF> >0x0D TIF> >0x28 TIF> >0x0D TIF> >0x21 TIF> >0x0D TIF> >0x21 TIF> >0x0D TIF>
 >0x28 TIF> >0x0D TIF> >0x21 TIF> >0x0D TIF> >0x21 TIF> >0x0D TIF> >0x28 TIF> >0x0D TIF> >0x21 TIF> >0x0D TIF> >0x21 TIF> >0x0D TIF> >0x28 TIF> >0x0D TIF> >0x21 TIF> >0x0D TIF> >0x21 TIF> >0x108 TIF>Found SWD-DP with ID 0x1BA01477 >0x0D TIF> >0x28 TIF> >0x0D TIF> >0x28 TIF> >0x0D TIF> >0x28 TIF> >0x0D TIF> >0x28 TIF> >0x0D TIF> >0x21 TIF> >0x0D TIF> >0x28 TIF> >0x0D TIF> >0x28 TIF> >0x0D TIF> >0x21 TIF> >0x0D TIF> >0x21 TIF> >0x0D TIF> >0x21 TIF>AP-IDR: 0x14770011, Type: AHB-AP >0x0D TIF> >0x28 TIF>
 >0x0D TIF> >0x28 TIF> >0x0D TIF> >0x28 TIF> >0x0D TIF> >0x21 TIF> >0x0D TIF> >0x21 TIF> >0x0D TIF> >0x28 TIF> >0x0D TIF> >0x21 TIF> >0x0D TIF> >0x21 TIF>Found Cortex-M3 r1p1, Little endian. -- CPU_ReadMem(4 bytes @ 0xE000EDF0) -- CPU_ReadMem(4 bytes @ 0xE0002000)FPUnit: 6 code (BP) slots and 2 literal slots -- CPU_ReadMem(4 bytes @ 0xE000EDFC) -- CPU_ReadMem(4 bytes @ 0xE0001000) -- CPU_WriteMem(4 bytes @ 0xE0001000) -- CPU_ReadMem(4 bytes @ 0xE000ED88) -- CPU_WriteMem(4 bytes @ 0xE000ED88)
 -- CPU_ReadMem(4 bytes @ 0xE000ED88) -- CPU_WriteMem(4 bytes @ 0xE000ED88)CoreSight components:ROMTbl 0 @ E00FF000 -- CPU_ReadMem(16 bytes @ 0xE00FF000) -- CPU_ReadMem(16 bytes @ 0xE000EFF0) -- CPU_ReadMem(16 bytes @ 0xE000EFE0)ROMTbl 0 [0]: FFF0F000, CID: B105E00D, PID: 001BB000 SCS -- CPU_ReadMem(16 bytes @ 0xE0001FF0) -- CPU_ReadMem(16 bytes @ 0xE0001FE0)ROMTbl 0 [1]: FFF02000, CID: B105E00D, PID: 001BB002 DWT -- CPU_ReadMem(16 bytes @ 0xE0002FF0) -- CPU_ReadMem(16 bytes @ 0xE0002FE0)
ROMTbl 0 [2]: FFF03000, CID: B105E00D, PID: 000BB003 FPB -- CPU_ReadMem(16 bytes @ 0xE0000FF0) -- CPU_ReadMem(16 bytes @ 0xE0000FE0)ROMTbl 0 [3]: FFF01000, CID: B105E00D, PID: 001BB001 ITM -- CPU_ReadMem(16 bytes @ 0xE00FF010) -- CPU_ReadMem(16 bytes @ 0xE0040FF0) -- CPU_ReadMem(16 bytes @ 0xE0040FE0)ROMTbl 0 [4]: FFF41000, CID: B105900D, PID: 001BB923 TPIU-Lite -- CPU_ReadMem(16 bytes @ 0xE0041FF0) -- CPU_ReadMem(16 bytes @ 0xE0041FE0)ROMTbl 0 [5]: FFF42000, CID: B105900D, PID: 101BB924 ETM-M3
 >0x0D TIF> >0x21 TIF>  returns 0x1BA01477 (0116ms, 0291ms total)
T02CC 000:387 JLINK_GetDLLVersion()  returns 61201 (0000ms, 0291ms total)
T02CC 000:387 JLINK_CORE_GetFound()  returns 0x30000FF (0000ms, 0291ms total)
T02CC 000:387 JLINK_GetDebugInfo(0x100) -- Value=0xE00FF000  returns 0x00 (0000ms, 0291ms total)
T02CC 000:391 JLINK_GetDebugInfo(0x100) -- Value=0xE00FF000  returns 0x00 (0000ms, 0291ms total)
T02CC 000:391 JLINK_GetDebugInfo(0x101) -- Value=0xE0041000  returns 0x00 (0000ms, 0291ms total)
T02CC 000:391 JLINK_GetDebugInfo(0x102) -- Value=0x00000000  returns 0x00 (0000ms, 0291ms total)
T02CC 000:391 JLINK_GetDebugInfo(0x103) -- Value=0xE0040000  returns 0x00 (0000ms, 0291ms total)
T02CC 000:391 JLINK_GetDebugInfo(0x104) -- Value=0xE0000000  returns 0x00 (0000ms, 0291ms total)
T02CC 000:391 JLINK_GetDebugInfo(0x105) -- Value=0xE0001000  returns 0x00 (0000ms, 0291ms total)
T02CC 000:391 JLINK_GetDebugInfo(0x106) -- Value=0xE0002000  returns 0x00 (0000ms, 0291ms total)
T02CC 000:391 JLINK_GetDebugInfo(0x107) -- Value=0xE000E000  returns 0x00 (0000ms, 0291ms total)
T02CC 000:391 JLINK_GetDebugInfo(0x10C) -- Value=0xE000EDF0  returns 0x00 (0000ms, 0291ms total)
T02CC 000:391 JLINK_ReadMemU32(0xE000ED00, 0x0001 Items, ...) -- CPU is running -- CPU_ReadMem(4 bytes @ 0xE000ED00) - Data: 31 C2 1F 41  returns 0x01 (0001ms, 0292ms total)
T02CC 000:392 JLINK_SetResetType(JLINKARM_CM3_RESET_TYPE_NORMAL)  returns JLINKARM_CM3_RESET_TYPE_NORMAL (0000ms, 0292ms total)
T02CC 000:392 JLINK_Reset() -- CPU is running -- CPU_WriteMem(4 bytes @ 0xE000EDF0) -- CPU is running -- CPU_WriteMem(4 bytes @ 0xE000EDFC) >0x35 TIF> -- CPU is running -- CPU_WriteMem(4 bytes @ 0xE000ED0C) -- CPU is running -- CPU_ReadMem(4 bytes @ 0xE000EDF0) -- CPU is running -- CPU_ReadMem(4 bytes @ 0xE000EDF0) -- CPU is running -- CPU_WriteMem(4 bytes @ 0xE000EDF0) -- CPU is running -- CPU_WriteMem(4 bytes @ 0xE000EDFC) -- CPU is running -- CPU_ReadMem(4 bytes @ 0xE000EDF0)
 -- CPU_WriteMem(4 bytes @ 0xE0002000) -- CPU_ReadMem(4 bytes @ 0xE000EDFC) -- CPU_ReadMem(4 bytes @ 0xE0001000) (0023ms, 0315ms total)
T02CC 000:415 JLINK_Halt()  returns 0x00 (0000ms, 0315ms total)
T02CC 000:415 JLINK_IsHalted()  returns TRUE (0000ms, 0315ms total)
T02CC 000:415 JLINK_ReadMemU32(0xE000EDF0, 0x0001 Items, ...) -- CPU_ReadMem(4 bytes @ 0xE000EDF0) - Data: 03 00 03 00  returns 0x01 (0001ms, 0316ms total)
T02CC 000:416 JLINK_WriteU32(0xE000EDF0, 0xA05F0003) -- CPU_WriteMem(4 bytes @ 0xE000EDF0)  returns 0x00 (0001ms, 0317ms total)
T02CC 000:417 JLINK_WriteU32(0xE000EDFC, 0x01000000) -- CPU_WriteMem(4 bytes @ 0xE000EDFC)  returns 0x00 (0001ms, 0318ms total)
T02CC 000:431 JLINK_GetHWStatus(...)  returns 0x00 (0001ms, 0319ms total)
T02CC 000:440 JLINK_GetNumBPUnits(Type = 0xFFFFFF00)  returns 0x06 (0000ms, 0319ms total)
T02CC 000:440 JLINK_GetNumBPUnits(Type = 0xF0)  returns 0x2000 (0000ms, 0319ms total)
T02CC 000:440 JLINK_GetNumWPUnits()  returns 0x04 (0000ms, 0319ms total)
T02CC 000:452 JLINK_GetSpeed()  returns 0xFA0 (0000ms, 0319ms total)
T02CC 000:458 JLINK_ReadMemU32(0xE000E004, 0x0001 Items, ...) -- CPU_ReadMem(4 bytes @ 0xE000E004) - Data: 01 00 00 00  returns 0x01 (0001ms, 0320ms total)
T02CC 000:459 JLINK_ReadMemU32(0xE000E004, 0x0001 Items, ...) -- CPU_ReadMem(4 bytes @ 0xE000E004) - Data: 01 00 00 00  returns 0x01 (0001ms, 0321ms total)
T02CC 000:460 JLINK_WriteMem(0xE0001000, 0x001C Bytes, ...) - Data: 01 00 00 00 00 00 00 00 00 00 00 00 00 00 00 00 ... -- CPU_WriteMem(28 bytes @ 0xE0001000)  returns 0x1C (0001ms, 0322ms total)
T02CC 000:461 JLINK_ReadMem (0xE0001000, 0x001C Bytes, ...) -- CPU_ReadMem(28 bytes @ 0xE0001000) - Data: 01 00 00 40 00 00 00 00 00 00 00 00 00 00 00 00 ...  returns 0x00 (0001ms, 0323ms total)
T02CC 000:462 JLINK_Halt()  returns 0x00 (0000ms, 0323ms total)
T02CC 000:462 JLINK_IsHalted()  returns TRUE (0000ms, 0323ms total)
T02CC 000:466 JLINK_WriteMem(0x20000000, 0x0164 Bytes, ...) - Data: 00 BE 0A E0 0D 78 2D 06 68 40 08 24 40 00 00 D3 ... -- CPU_WriteMem(356 bytes @ 0x20000000)  returns 0x164 (0006ms, 0329ms total)
T02CC 000:472 JLINK_WriteReg(R0, 0x08000000)  returns 0x00 (0000ms, 0329ms total)
T02CC 000:472 JLINK_WriteReg(R1, 0x007A1200)  returns 0x00 (0000ms, 0329ms total)
T02CC 000:472 JLINK_WriteReg(R2, 0x00000001)  returns 0x00 (0000ms, 0329ms total)
T02CC 000:472 JLINK_WriteReg(R3, 0x00000000)  returns 0x00 (0000ms, 0329ms total)
T02CC 000:472 JLINK_WriteReg(R4, 0x00000000)  returns 0x00 (0000ms, 0329ms total)
T02CC 000:472 JLINK_WriteReg(R5, 0x00000000)  returns 0x00 (0000ms, 0329ms total)
T02CC 000:472 JLINK_WriteReg(R6, 0x00000000)  returns 0x00 (0000ms, 0329ms total)
T02CC 000:472 JLINK_WriteReg(R7, 0x00000000)  returns 0x00 (0000ms, 0329ms total)
T02CC 000:472 JLINK_WriteReg(R8, 0x00000000)  returns 0x00 (0000ms, 0329ms total)
T02CC 000:472 JLINK_WriteReg(R9, 0x20000160)  returns 0x00 (0000ms, 0329ms total)
T02CC 000:472 JLINK_WriteReg(R10, 0x00000000)  returns 0x00 (0000ms, 0329ms total)
T02CC 000:472 JLINK_WriteReg(R11, 0x00000000)  returns 0x00 (0000ms, 0329ms total)
T02CC 000:472 JLINK_WriteReg(R12, 0x00000000)  returns 0x00 (0000ms, 0329ms total)
T02CC 000:472 JLINK_WriteReg(R13 (SP), 0x20000800)  returns 0x00 (0000ms, 0329ms total)
T02CC 000:472 JLINK_WriteReg(R14, 0x20000001)  returns 0x00 (0000ms, 0329ms total)
T02CC 000:472 JLINK_WriteReg(R15 (PC), 0x20000038)  returns 0x00 (0000ms, 0329ms total)
T02CC 000:472 JLINK_WriteReg(XPSR, 0x01000000)  returns 0x00 (0000ms, 0329ms total)
T02CC 000:472 JLINK_WriteReg(MSP, 0x20000800)  returns 0x00 (0000ms, 0329ms total)
T02CC 000:472 JLINK_WriteReg(PSP, 0x20000800)  returns 0x00 (0000ms, 0329ms total)
T02CC 000:472 JLINK_WriteReg(CFBP, 0x00000000)  returns 0x00 (0000ms, 0329ms total)
T02CC 000:472 JLINK_SetBPEx(Addr = 0x20000000, Type = 0xFFFFFFF2) -- CPU_ReadMem(2 bytes @ 0x20000000)  returns 0x00000001 (0001ms, 0330ms total)
T02CC 000:473 JLINK_Go() -- CPU_WriteMem(2 bytes @ 0x20000000) -- CPU_ReadMem(4 bytes @ 0xE0001000) -- CPU_WriteMem(4 bytes @ 0xE0002008) -- CPU_WriteMem(4 bytes @ 0xE000200C) -- CPU_WriteMem(4 bytes @ 0xE0002010) -- CPU_WriteMem(4 bytes @ 0xE0002014) -- CPU_WriteMem(4 bytes @ 0xE0002018) -- CPU_WriteMem(4 bytes @ 0xE000201C) -- CPU_WriteMem(4 bytes @ 0xE0001004) (0008ms, 0338ms total)
T02CC 000:481 JLINK_IsHalted() -- CPU_ReadMem(2 bytes @ 0x20000000)  returns TRUE (0004ms, 0342ms total)
T02CC 000:485 JLINK_ReadReg(R15 (PC))  returns 0x20000000 (0000ms, 0338ms total)
T02CC 000:485 JLINK_ClrBPEx(BPHandle = 0x00000001)  returns 0x00 (0000ms, 0338ms total)
T02CC 000:485 JLINK_ReadReg(R0)  returns 0x00000000 (0000ms, 0338ms total)
T02CC 000:486 JLINK_WriteReg(R0, 0x08000000)  returns 0x00 (0000ms, 0338ms total)
T02CC 000:486 JLINK_WriteReg(R1, 0x007A1200)  returns 0x00 (0000ms, 0338ms total)
T02CC 000:486 JLINK_WriteReg(R2, 0x00000001)  returns 0x00 (0000ms, 0338ms total)
T02CC 000:486 JLINK_WriteReg(R3, 0x00000000)  returns 0x00 (0000ms, 0338ms total)
T02CC 000:486 JLINK_WriteReg(R4, 0x00000000)  returns 0x00 (0000ms, 0338ms total)
T02CC 000:486 JLINK_WriteReg(R5, 0x00000000)  returns 0x00 (0000ms, 0338ms total)
T02CC 000:486 JLINK_WriteReg(R6, 0x00000000)  returns 0x00 (0000ms, 0338ms total)
T02CC 000:486 JLINK_WriteReg(R7, 0x00000000)  returns 0x00 (0000ms, 0338ms total)
T02CC 000:486 JLINK_WriteReg(R8, 0x00000000)  returns 0x00 (0000ms, 0338ms total)
T02CC 000:486 JLINK_WriteReg(R9, 0x20000160)  returns 0x00 (0000ms, 0338ms total)
T02CC 000:486 JLINK_WriteReg(R10, 0x00000000)  returns 0x00 (0000ms, 0338ms total)
T02CC 000:486 JLINK_WriteReg(R11, 0x00000000)  returns 0x00 (0000ms, 0338ms total)
T02CC 000:486 JLINK_WriteReg(R12, 0x00000000)  returns 0x00 (0000ms, 0338ms total)
T02CC 000:486 JLINK_WriteReg(R13 (SP), 0x20000800)  returns 0x00 (0000ms, 0338ms total)
T02CC 000:486 JLINK_WriteReg(R14, 0x20000001)  returns 0x00 (0000ms, 0338ms total)
T02CC 000:486 JLINK_WriteReg(R15 (PC), 0x2000007C)  returns 0x00 (0000ms, 0338ms total)
T02CC 000:486 JLINK_WriteReg(XPSR, 0x01000000)  returns 0x00 (0000ms, 0338ms total)
T02CC 000:486 JLINK_WriteReg(MSP, 0x20000800)  returns 0x00 (0000ms, 0338ms total)
T02CC 000:486 JLINK_WriteReg(PSP, 0x20000800)  returns 0x00 (0000ms, 0338ms total)
T02CC 000:486 JLINK_WriteReg(CFBP, 0x00000000)  returns 0x00 (0000ms, 0338ms total)
T02CC 000:486 JLINK_SetBPEx(Addr = 0x20000000, Type = 0xFFFFFFF2)  returns 0x00000002 (0000ms, 0338ms total)
T02CC 000:486 JLINK_Go() -- CPU_ReadMem(4 bytes @ 0xE0001000) (0003ms, 0341ms total)
T02CC 000:489 JLINK_IsHalted()  returns FALSE (0001ms, 0342ms total)
T02CC 000:564 JLINK_IsHalted() -- CPU_ReadMem(2 bytes @ 0x20000000)  returns TRUE (0005ms, 0346ms total)
T02CC 000:569 JLINK_ReadReg(R15 (PC))  returns 0x20000000 (0000ms, 0341ms total)
T02CC 000:569 JLINK_ClrBPEx(BPHandle = 0x00000002)  returns 0x00 (0000ms, 0341ms total)
T02CC 000:569 JLINK_ReadReg(R0)  returns 0x00000000 (0000ms, 0341ms total)
T02CC 000:620 JLINK_WriteReg(R0, 0x00000001)  returns 0x00 (0000ms, 0341ms total)
T02CC 000:620 JLINK_WriteReg(R1, 0x007A1200)  returns 0x00 (0000ms, 0341ms total)
T02CC 000:620 JLINK_WriteReg(R2, 0x00000001)  returns 0x00 (0000ms, 0341ms total)
T02CC 000:620 JLINK_WriteReg(R3, 0x00000000)  returns 0x00 (0001ms, 0342ms total)
T02CC 000:621 JLINK_WriteReg(R4, 0x00000000)  returns 0x00 (0000ms, 0342ms total)
T02CC 000:621 JLINK_WriteReg(R5, 0x00000000)  returns 0x00 (0000ms, 0342ms total)
T02CC 000:621 JLINK_WriteReg(R6, 0x00000000)  returns 0x00 (0000ms, 0342ms total)
T02CC 000:621 JLINK_WriteReg(R7, 0x00000000)  returns 0x00 (0000ms, 0342ms total)
T02CC 000:621 JLINK_WriteReg(R8, 0x00000000)  returns 0x00 (0000ms, 0342ms total)
T02CC 000:621 JLINK_WriteReg(R9, 0x20000160)  returns 0x00 (0000ms, 0342ms total)
T02CC 000:621 JLINK_WriteReg(R10, 0x00000000)  returns 0x00 (0000ms, 0342ms total)
T02CC 000:621 JLINK_WriteReg(R11, 0x00000000)  returns 0x00 (0000ms, 0342ms total)
T02CC 000:621 JLINK_WriteReg(R12, 0x00000000)  returns 0x00 (0000ms, 0342ms total)
T02CC 000:621 JLINK_WriteReg(R13 (SP), 0x20000800)  returns 0x00 (0000ms, 0342ms total)
T02CC 000:621 JLINK_WriteReg(R14, 0x20000001)  returns 0x00 (0000ms, 0342ms total)
T02CC 000:621 JLINK_WriteReg(R15 (PC), 0x2000006A)  returns 0x00 (0000ms, 0342ms total)
T02CC 000:621 JLINK_WriteReg(XPSR, 0x01000000)  returns 0x00 (0000ms, 0342ms total)
T02CC 000:621 JLINK_WriteReg(MSP, 0x20000800)  returns 0x00 (0000ms, 0342ms total)
T02CC 000:621 JLINK_WriteReg(PSP, 0x20000800)  returns 0x00 (0000ms, 0342ms total)
T02CC 000:621 JLINK_WriteReg(CFBP, 0x00000000)  returns 0x00 (0000ms, 0342ms total)
T02CC 000:621 JLINK_SetBPEx(Addr = 0x20000000, Type = 0xFFFFFFF2)  returns 0x00000003 (0000ms, 0342ms total)
T02CC 000:621 JLINK_Go() -- CPU_ReadMem(4 bytes @ 0xE0001000) (0003ms, 0345ms total)
T02CC 000:624 JLINK_IsHalted() -- CPU_ReadMem(2 bytes @ 0x20000000)  returns TRUE (0004ms, 0349ms total)
T02CC 000:628 JLINK_ReadReg(R15 (PC))  returns 0x20000000 (0000ms, 0345ms total)
T02CC 000:628 JLINK_ClrBPEx(BPHandle = 0x00000003)  returns 0x00 (0000ms, 0345ms total)
T02CC 000:628 JLINK_ReadReg(R0)  returns 0x00000000 (0000ms, 0345ms total)
T02CC 000:635 JLINK_WriteMem(0x20000000, 0x0164 Bytes, ...) - Data: 00 BE 0A E0 0D 78 2D 06 68 40 08 24 40 00 00 D3 ... -- CPU_WriteMem(356 bytes @ 0x20000000)  returns 0x164 (0005ms, 0350ms total)
T02CC 000:640 JLINK_WriteReg(R0, 0x08000000)  returns 0x00 (0000ms, 0350ms total)
T02CC 000:640 JLINK_WriteReg(R1, 0x007A1200)  returns 0x00 (0000ms, 0350ms total)
T02CC 000:640 JLINK_WriteReg(R2, 0x00000002)  returns 0x00 (0000ms, 0350ms total)
T02CC 000:640 JLINK_WriteReg(R3, 0x00000000)  returns 0x00 (0000ms, 0350ms total)
T02CC 000:640 JLINK_WriteReg(R4, 0x00000000)  returns 0x00 (0000ms, 0350ms total)
T02CC 000:640 JLINK_WriteReg(R5, 0x00000000)  returns 0x00 (0000ms, 0350ms total)
T02CC 000:640 JLINK_WriteReg(R6, 0x00000000)  returns 0x00 (0000ms, 0350ms total)
T02CC 000:640 JLINK_WriteReg(R7, 0x00000000)  returns 0x00 (0000ms, 0350ms total)
T02CC 000:640 JLINK_WriteReg(R8, 0x00000000)  returns 0x00 (0000ms, 0350ms total)
T02CC 000:640 JLINK_WriteReg(R9, 0x20000160)  returns 0x00 (0000ms, 0350ms total)
T02CC 000:640 JLINK_WriteReg(R10, 0x00000000)  returns 0x00 (0000ms, 0350ms total)
T02CC 000:640 JLINK_WriteReg(R11, 0x00000000)  returns 0x00 (0001ms, 0351ms total)
T02CC 000:641 JLINK_WriteReg(R12, 0x00000000)  returns 0x00 (0000ms, 0351ms total)
T02CC 000:641 JLINK_WriteReg(R13 (SP), 0x20000800)  returns 0x00 (0000ms, 0351ms total)
T02CC 000:641 JLINK_WriteReg(R14, 0x20000001)  returns 0x00 (0000ms, 0351ms total)
T02CC 000:641 JLINK_WriteReg(R15 (PC), 0x20000038)  returns 0x00 (0000ms, 0351ms total)
T02CC 000:641 JLINK_WriteReg(XPSR, 0x01000000)  returns 0x00 (0000ms, 0351ms total)
T02CC 000:641 JLINK_WriteReg(MSP, 0x20000800)  returns 0x00 (0000ms, 0351ms total)
T02CC 000:641 JLINK_WriteReg(PSP, 0x20000800)  returns 0x00 (0000ms, 0351ms total)
T02CC 000:641 JLINK_WriteReg(CFBP, 0x00000000)  returns 0x00 (0000ms, 0351ms total)
T02CC 000:641 JLINK_SetBPEx(Addr = 0x20000000, Type = 0xFFFFFFF2) -- CPU_ReadMem(2 bytes @ 0x20000000)  returns 0x00000004 (0000ms, 0351ms total)
T02CC 000:642 JLINK_Go() -- CPU_WriteMem(2 bytes @ 0x20000000) -- CPU_ReadMem(4 bytes @ 0xE0001000) (0003ms, 0355ms total)
T02CC 000:645 JLINK_IsHalted() -- CPU_ReadMem(2 bytes @ 0x20000000)  returns TRUE (0005ms, 0360ms total)
T02CC 000:650 JLINK_ReadReg(R15 (PC))  returns 0x20000000 (0000ms, 0355ms total)
T02CC 000:650 JLINK_ClrBPEx(BPHandle = 0x00000004)  returns 0x00 (0000ms, 0355ms total)
T02CC 000:650 JLINK_ReadReg(R0)  returns 0x00000000 (0000ms, 0355ms total)
T02CC 000:651 JLINK_WriteMem(0x20000164, 0x0400 Bytes, ...) - Data: 10 E5 00 20 45 01 00 08 4D 01 00 08 4F 01 00 08 ... -- CPU_WriteMem(1024 bytes @ 0x20000164)  returns 0x400 (0013ms, 0368ms total)
T02CC 000:664 JLINK_WriteReg(R0, 0x08000000)  returns 0x00 (0000ms, 0368ms total)
T02CC 000:664 JLINK_WriteReg(R1, 0x00000400)  returns 0x00 (0000ms, 0368ms total)
T02CC 000:664 JLINK_WriteReg(R2, 0x20000164)  returns 0x00 (0000ms, 0368ms total)
T02CC 000:664 JLINK_WriteReg(R3, 0x00000000)  returns 0x00 (0000ms, 0368ms total)
T02CC 000:664 JLINK_WriteReg(R4, 0x00000000)  returns 0x00 (0000ms, 0368ms total)
T02CC 000:664 JLINK_WriteReg(R5, 0x00000000)  returns 0x00 (0000ms, 0368ms total)
T02CC 000:664 JLINK_WriteReg(R6, 0x00000000)  returns 0x00 (0000ms, 0368ms total)
T02CC 000:664 JLINK_WriteReg(R7, 0x00000000)  returns 0x00 (0000ms, 0368ms total)
T02CC 000:664 JLINK_WriteReg(R8, 0x00000000)  returns 0x00 (0000ms, 0368ms total)
T02CC 000:664 JLINK_WriteReg(R9, 0x20000160)  returns 0x00 (0000ms, 0368ms total)
T02CC 000:664 JLINK_WriteReg(R10, 0x00000000)  returns 0x00 (0000ms, 0368ms total)
T02CC 000:664 JLINK_WriteReg(R11, 0x00000000)  returns 0x00 (0000ms, 0368ms total)
T02CC 000:664 JLINK_WriteReg(R12, 0x00000000)  returns 0x00 (0000ms, 0368ms total)
T02CC 000:664 JLINK_WriteReg(R13 (SP), 0x20000800)  returns 0x00 (0000ms, 0368ms total)
T02CC 000:664 JLINK_WriteReg(R14, 0x20000001)  returns 0x00 (0000ms, 0368ms total)
T02CC 000:664 JLINK_WriteReg(R15 (PC), 0x200000F4)  returns 0x00 (0000ms, 0368ms total)
T02CC 000:664 JLINK_WriteReg(XPSR, 0x01000000)  returns 0x00 (0000ms, 0368ms total)
T02CC 000:664 JLINK_WriteReg(MSP, 0x20000800)  returns 0x00 (0000ms, 0368ms total)
T02CC 000:664 JLINK_WriteReg(PSP, 0x20000800)  returns 0x00 (0000ms, 0368ms total)
T02CC 000:664 JLINK_WriteReg(CFBP, 0x00000000)  returns 0x00 (0000ms, 0368ms total)
T02CC 000:664 JLINK_SetBPEx(Addr = 0x20000000, Type = 0xFFFFFFF2)  returns 0x00000005 (0000ms, 0368ms total)
T02CC 000:664 JLINK_Go() -- CPU_ReadMem(4 bytes @ 0xE0001000) (0004ms, 0372ms total)
T02CC 000:668 JLINK_IsHalted()  returns FALSE (0001ms, 0373ms total)
T02CC 000:686 JLINK_IsHalted()  returns FALSE (0000ms, 0372ms total)
T02CC 000:688 JLINK_IsHalted()  returns FALSE (0000ms, 0372ms total)
T02CC 000:690 JLINK_IsHalted()  returns FALSE (0000ms, 0372ms total)
T02CC 000:692 JLINK_IsHalted()  returns FALSE (0000ms, 0372ms total)
T02CC 000:696 JLINK_IsHalted()  returns FALSE (0000ms, 0372ms total)
T02CC 000:698 JLINK_IsHalted()  returns FALSE (0000ms, 0372ms total)
T02CC 000:700 JLINK_IsHalted() -- CPU_ReadMem(2 bytes @ 0x20000000)  returns TRUE (0004ms, 0376ms total)
T02CC 000:704 JLINK_ReadReg(R15 (PC))  returns 0x20000000 (0000ms, 0372ms total)
T02CC 000:704 JLINK_ClrBPEx(BPHandle = 0x00000005)  returns 0x00 (0000ms, 0372ms total)
T02CC 000:704 JLINK_ReadReg(R0)  returns 0x00000000 (0000ms, 0372ms total)
T02CC 000:705 JLINK_WriteMem(0x20000164, 0x0400 Bytes, ...) - Data: 0B 90 B9 69 6D 1C 0E 98 88 47 39 6A 82 46 88 47 ... -- CPU_WriteMem(1024 bytes @ 0x20000164)  returns 0x400 (0013ms, 0385ms total)
T02CC 000:718 JLINK_WriteReg(R0, 0x08000400)  returns 0x00 (0000ms, 0385ms total)
T02CC 000:718 JLINK_WriteReg(R1, 0x00000400)  returns 0x00 (0000ms, 0385ms total)
T02CC 000:718 JLINK_WriteReg(R2, 0x20000164)  returns 0x00 (0000ms, 0385ms total)
T02CC 000:718 JLINK_WriteReg(R3, 0x00000000)  returns 0x00 (0000ms, 0385ms total)
T02CC 000:718 JLINK_WriteReg(R4, 0x00000000)  returns 0x00 (0000ms, 0385ms total)
T02CC 000:718 JLINK_WriteReg(R5, 0x00000000)  returns 0x00 (0000ms, 0385ms total)
T02CC 000:718 JLINK_WriteReg(R6, 0x00000000)  returns 0x00 (0000ms, 0385ms total)
T02CC 000:718 JLINK_WriteReg(R7, 0x00000000)  returns 0x00 (0000ms, 0385ms total)
T02CC 000:718 JLINK_WriteReg(R8, 0x00000000)  returns 0x00 (0000ms, 0385ms total)
T02CC 000:718 JLINK_WriteReg(R9, 0x20000160)  returns 0x00 (0000ms, 0385ms total)
T02CC 000:718 JLINK_WriteReg(R10, 0x00000000)  returns 0x00 (0000ms, 0385ms total)
T02CC 000:718 JLINK_WriteReg(R11, 0x00000000)  returns 0x00 (0000ms, 0385ms total)
T02CC 000:718 JLINK_WriteReg(R12, 0x00000000)  returns 0x00 (0000ms, 0385ms total)
T02CC 000:718 JLINK_WriteReg(R13 (SP), 0x20000800)  returns 0x00 (0000ms, 0385ms total)
T02CC 000:718 JLINK_WriteReg(R14, 0x20000001)  returns 0x00 (0000ms, 0385ms total)
T02CC 000:718 JLINK_WriteReg(R15 (PC), 0x200000F4)  returns 0x00 (0000ms, 0385ms total)
T02CC 000:718 JLINK_WriteReg(XPSR, 0x01000000)  returns 0x00 (0000ms, 0385ms total)
T02CC 000:718 JLINK_WriteReg(MSP, 0x20000800)  returns 0x00 (0000ms, 0385ms total)
T02CC 000:718 JLINK_WriteReg(PSP, 0x20000800)  returns 0x00 (0000ms, 0385ms total)
T02CC 000:718 JLINK_WriteReg(CFBP, 0x00000000)  returns 0x00 (0000ms, 0385ms total)
T02CC 000:718 JLINK_SetBPEx(Addr = 0x20000000, Type = 0xFFFFFFF2)  returns 0x00000006 (0000ms, 0385ms total)
T02CC 000:718 JLINK_Go() -- CPU_ReadMem(4 bytes @ 0xE0001000) (0003ms, 0388ms total)
T02CC 000:721 JLINK_IsHalted()  returns FALSE (0001ms, 0389ms total)
T02CC 000:724 JLINK_IsHalted()  returns FALSE (0000ms, 0388ms total)
T02CC 000:726 JLINK_IsHalted()  returns FALSE (0001ms, 0389ms total)
T02CC 000:729 JLINK_IsHalted()  returns FALSE (0000ms, 0388ms total)
T02CC 000:731 JLINK_IsHalted()  returns FALSE (0000ms, 0388ms total)
T02CC 000:733 JLINK_IsHalted()  returns FALSE (0000ms, 0388ms total)
T02CC 000:735 JLINK_IsHalted()  returns FALSE (0000ms, 0388ms total)
T02CC 000:737 JLINK_IsHalted()  returns FALSE (0000ms, 0388ms total)
T02CC 000:739 JLINK_IsHalted()  returns FALSE (0001ms, 0389ms total)
T02CC 000:742 JLINK_IsHalted()  returns FALSE (0001ms, 0389ms total)
T02CC 000:745 JLINK_IsHalted()  returns FALSE (0000ms, 0388ms total)
T02CC 000:747 JLINK_IsHalted()  returns FALSE (0000ms, 0388ms total)
T02CC 000:749 JLINK_IsHalted()  returns FALSE (0000ms, 0388ms total)
T02CC 000:751 JLINK_IsHalted()  returns FALSE (0000ms, 0388ms total)
T02CC 000:753 JLINK_IsHalted() -- CPU_ReadMem(2 bytes @ 0x20000000)  returns TRUE (0004ms, 0392ms total)
T02CC 000:757 JLINK_ReadReg(R15 (PC))  returns 0x20000000 (0000ms, 0388ms total)
T02CC 000:757 JLINK_ClrBPEx(BPHandle = 0x00000006)  returns 0x00 (0000ms, 0388ms total)
T02CC 000:757 JLINK_ReadReg(R0)  returns 0x00000000 (0000ms, 0388ms total)
T02CC 000:758 JLINK_WriteMem(0x20000164, 0x0400 Bytes, ...) - Data: A7 FB 02 01 B6 EB 0B 01 64 EB 00 04 2B 0D 43 EA ... -- CPU_WriteMem(1024 bytes @ 0x20000164)  returns 0x400 (0012ms, 0400ms total)
T02CC 000:770 JLINK_WriteReg(R0, 0x08000800)  returns 0x00 (0000ms, 0400ms total)
T02CC 000:770 JLINK_WriteReg(R1, 0x00000400)  returns 0x00 (0000ms, 0400ms total)
T02CC 000:770 JLINK_WriteReg(R2, 0x20000164)  returns 0x00 (0000ms, 0400ms total)
T02CC 000:770 JLINK_WriteReg(R3, 0x00000000)  returns 0x00 (0000ms, 0400ms total)
T02CC 000:770 JLINK_WriteReg(R4, 0x00000000)  returns 0x00 (0000ms, 0400ms total)
T02CC 000:770 JLINK_WriteReg(R5, 0x00000000)  returns 0x00 (0000ms, 0400ms total)
T02CC 000:771 JLINK_WriteReg(R6, 0x00000000)  returns 0x00 (0000ms, 0401ms total)
T02CC 000:771 JLINK_WriteReg(R7, 0x00000000)  returns 0x00 (0000ms, 0401ms total)
T02CC 000:771 JLINK_WriteReg(R8, 0x00000000)  returns 0x00 (0000ms, 0401ms total)
T02CC 000:771 JLINK_WriteReg(R9, 0x20000160)  returns 0x00 (0000ms, 0401ms total)
T02CC 000:771 JLINK_WriteReg(R10, 0x00000000)  returns 0x00 (0000ms, 0401ms total)
T02CC 000:771 JLINK_WriteReg(R11, 0x00000000)  returns 0x00 (0000ms, 0401ms total)
T02CC 000:771 JLINK_WriteReg(R12, 0x00000000)  returns 0x00 (0000ms, 0401ms total)
T02CC 000:771 JLINK_WriteReg(R13 (SP), 0x20000800)  returns 0x00 (0000ms, 0401ms total)
T02CC 000:771 JLINK_WriteReg(R14, 0x20000001)  returns 0x00 (0000ms, 0401ms total)
T02CC 000:771 JLINK_WriteReg(R15 (PC), 0x200000F4)  returns 0x00 (0000ms, 0401ms total)
T02CC 000:771 JLINK_WriteReg(XPSR, 0x01000000)  returns 0x00 (0000ms, 0401ms total)
T02CC 000:771 JLINK_WriteReg(MSP, 0x20000800)  returns 0x00 (0000ms, 0401ms total)
T02CC 000:771 JLINK_WriteReg(PSP, 0x20000800)  returns 0x00 (0000ms, 0401ms total)
T02CC 000:771 JLINK_WriteReg(CFBP, 0x00000000)  returns 0x00 (0000ms, 0401ms total)
T02CC 000:771 JLINK_SetBPEx(Addr = 0x20000000, Type = 0xFFFFFFF2)  returns 0x00000007 (0000ms, 0401ms total)
T02CC 000:771 JLINK_Go() -- CPU_ReadMem(4 bytes @ 0xE0001000) (0003ms, 0404ms total)
T02CC 000:774 JLINK_IsHalted()  returns FALSE (0001ms, 0405ms total)
T02CC 000:778 JLINK_IsHalted()  returns FALSE (0000ms, 0404ms total)
T02CC 000:780 JLINK_IsHalted()  returns FALSE (0000ms, 0404ms total)
T02CC 000:782 JLINK_IsHalted()  returns FALSE (0000ms, 0404ms total)
T02CC 000:792 JLINK_IsHalted()  returns FALSE (0000ms, 0404ms total)
T02CC 000:794 JLINK_IsHalted()  returns FALSE (0000ms, 0404ms total)
T02CC 000:796 JLINK_IsHalted()  returns FALSE (0000ms, 0404ms total)
T02CC 000:798 JLINK_IsHalted()  returns FALSE (0000ms, 0404ms total)
T02CC 000:802 JLINK_IsHalted()  returns FALSE (0001ms, 0405ms total)
T02CC 000:805 JLINK_IsHalted() -- CPU_ReadMem(2 bytes @ 0x20000000)  returns TRUE (0004ms, 0408ms total)
T02CC 000:809 JLINK_ReadReg(R15 (PC))  returns 0x20000000 (0000ms, 0404ms total)
T02CC 000:809 JLINK_ClrBPEx(BPHandle = 0x00000007)  returns 0x00 (0000ms, 0404ms total)
T02CC 000:809 JLINK_ReadReg(R0)  returns 0x00000000 (0000ms, 0404ms total)
T02CC 000:810 JLINK_WriteMem(0x20000164, 0x0400 Bytes, ...) - Data: 33 42 02 92 00 22 CD E9 00 22 13 46 FF F7 39 FF ... -- CPU_WriteMem(1024 bytes @ 0x20000164)  returns 0x400 (0012ms, 0416ms total)
T02CC 000:822 JLINK_WriteReg(R0, 0x08000C00)  returns 0x00 (0000ms, 0416ms total)
T02CC 000:822 JLINK_WriteReg(R1, 0x00000400)  returns 0x00 (0000ms, 0416ms total)
T02CC 000:822 JLINK_WriteReg(R2, 0x20000164)  returns 0x00 (0000ms, 0416ms total)
T02CC 000:822 JLINK_WriteReg(R3, 0x00000000)  returns 0x00 (0000ms, 0416ms total)
T02CC 000:822 JLINK_WriteReg(R4, 0x00000000)  returns 0x00 (0000ms, 0416ms total)
T02CC 000:822 JLINK_WriteReg(R5, 0x00000000)  returns 0x00 (0000ms, 0416ms total)
T02CC 000:822 JLINK_WriteReg(R6, 0x00000000)  returns 0x00 (0000ms, 0416ms total)
T02CC 000:822 JLINK_WriteReg(R7, 0x00000000)  returns 0x00 (0000ms, 0416ms total)
T02CC 000:822 JLINK_WriteReg(R8, 0x00000000)  returns 0x00 (0000ms, 0416ms total)
T02CC 000:822 JLINK_WriteReg(R9, 0x20000160)  returns 0x00 (0000ms, 0416ms total)
T02CC 000:822 JLINK_WriteReg(R10, 0x00000000)  returns 0x00 (0001ms, 0417ms total)
T02CC 000:823 JLINK_WriteReg(R11, 0x00000000)  returns 0x00 (0000ms, 0417ms total)
T02CC 000:823 JLINK_WriteReg(R12, 0x00000000)  returns 0x00 (0000ms, 0417ms total)
T02CC 000:823 JLINK_WriteReg(R13 (SP), 0x20000800)  returns 0x00 (0000ms, 0417ms total)
T02CC 000:823 JLINK_WriteReg(R14, 0x20000001)  returns 0x00 (0000ms, 0417ms total)
T02CC 000:823 JLINK_WriteReg(R15 (PC), 0x200000F4)  returns 0x00 (0000ms, 0417ms total)
T02CC 000:823 JLINK_WriteReg(XPSR, 0x01000000)  returns 0x00 (0000ms, 0417ms total)
T02CC 000:823 JLINK_WriteReg(MSP, 0x20000800)  returns 0x00 (0000ms, 0417ms total)
T02CC 000:823 JLINK_WriteReg(PSP, 0x20000800)  returns 0x00 (0000ms, 0417ms total)
T02CC 000:823 JLINK_WriteReg(CFBP, 0x00000000)  returns 0x00 (0000ms, 0417ms total)
T02CC 000:823 JLINK_SetBPEx(Addr = 0x20000000, Type = 0xFFFFFFF2)  returns 0x00000008 (0000ms, 0417ms total)
T02CC 000:823 JLINK_Go() -- CPU_ReadMem(4 bytes @ 0xE0001000) (0003ms, 0420ms total)
T02CC 000:826 JLINK_IsHalted()  returns FALSE (0001ms, 0421ms total)
T02CC 000:829 JLINK_IsHalted()  returns FALSE (0000ms, 0420ms total)
T02CC 000:831 JLINK_IsHalted()  returns FALSE (0000ms, 0420ms total)
T02CC 000:833 JLINK_IsHalted()  returns FALSE (0000ms, 0420ms total)
T02CC 000:835 JLINK_IsHalted()  returns FALSE (0000ms, 0420ms total)
T02CC 000:837 JLINK_IsHalted()  returns FALSE (0000ms, 0420ms total)
T02CC 000:839 JLINK_IsHalted()  returns FALSE (0001ms, 0421ms total)
T02CC 000:842 JLINK_IsHalted()  returns FALSE (0000ms, 0420ms total)
T02CC 000:844 JLINK_IsHalted()  returns FALSE (0000ms, 0420ms total)
T02CC 000:846 JLINK_IsHalted()  returns FALSE (0000ms, 0420ms total)
T02CC 000:848 JLINK_IsHalted()  returns FALSE (0000ms, 0420ms total)
T02CC 000:850 JLINK_IsHalted()  returns FALSE (0000ms, 0420ms total)
T02CC 000:852 JLINK_IsHalted()  returns FALSE (0000ms, 0420ms total)
T02CC 000:854 JLINK_IsHalted()  returns FALSE (0000ms, 0420ms total)
T02CC 000:856 JLINK_IsHalted()  returns FALSE (0000ms, 0420ms total)
T02CC 000:858 JLINK_IsHalted() -- CPU_ReadMem(2 bytes @ 0x20000000)  returns TRUE (0004ms, 0424ms total)
T02CC 000:862 JLINK_ReadReg(R15 (PC))  returns 0x20000000 (0000ms, 0420ms total)
T02CC 000:862 JLINK_ClrBPEx(BPHandle = 0x00000008)  returns 0x00 (0000ms, 0420ms total)
T02CC 000:862 JLINK_ReadReg(R0)  returns 0x00000000 (0000ms, 0420ms total)
T02CC 000:863 JLINK_WriteMem(0x20000164, 0x0400 Bytes, ...) - Data: CC F1 20 04 21 FA 04 F4 11 FA 0C F1 18 BF 01 21 ... -- CPU_WriteMem(1024 bytes @ 0x20000164)  returns 0x400 (0013ms, 0433ms total)
T02CC 000:876 JLINK_WriteReg(R0, 0x08001000)  returns 0x00 (0000ms, 0433ms total)
T02CC 000:876 JLINK_WriteReg(R1, 0x00000400)  returns 0x00 (0000ms, 0433ms total)
T02CC 000:876 JLINK_WriteReg(R2, 0x20000164)  returns 0x00 (0000ms, 0433ms total)
T02CC 000:876 JLINK_WriteReg(R3, 0x00000000)  returns 0x00 (0000ms, 0433ms total)
T02CC 000:876 JLINK_WriteReg(R4, 0x00000000)  returns 0x00 (0000ms, 0433ms total)
T02CC 000:876 JLINK_WriteReg(R5, 0x00000000)  returns 0x00 (0000ms, 0433ms total)
T02CC 000:876 JLINK_WriteReg(R6, 0x00000000)  returns 0x00 (0000ms, 0433ms total)
T02CC 000:876 JLINK_WriteReg(R7, 0x00000000)  returns 0x00 (0000ms, 0433ms total)
T02CC 000:876 JLINK_WriteReg(R8, 0x00000000)  returns 0x00 (0000ms, 0433ms total)
T02CC 000:876 JLINK_WriteReg(R9, 0x20000160)  returns 0x00 (0000ms, 0433ms total)
T02CC 000:876 JLINK_WriteReg(R10, 0x00000000)  returns 0x00 (0000ms, 0433ms total)
T02CC 000:876 JLINK_WriteReg(R11, 0x00000000)  returns 0x00 (0000ms, 0433ms total)
T02CC 000:876 JLINK_WriteReg(R12, 0x00000000)  returns 0x00 (0000ms, 0433ms total)
T02CC 000:876 JLINK_WriteReg(R13 (SP), 0x20000800)  returns 0x00 (0000ms, 0433ms total)
T02CC 000:876 JLINK_WriteReg(R14, 0x20000001)  returns 0x00 (0000ms, 0433ms total)
T02CC 000:876 JLINK_WriteReg(R15 (PC), 0x200000F4)  returns 0x00 (0000ms, 0433ms total)
T02CC 000:876 JLINK_WriteReg(XPSR, 0x01000000)  returns 0x00 (0000ms, 0433ms total)
T02CC 000:876 JLINK_WriteReg(MSP, 0x20000800)  returns 0x00 (0000ms, 0433ms total)
T02CC 000:876 JLINK_WriteReg(PSP, 0x20000800)  returns 0x00 (0000ms, 0433ms total)
T02CC 000:876 JLINK_WriteReg(CFBP, 0x00000000)  returns 0x00 (0000ms, 0433ms total)
T02CC 000:876 JLINK_SetBPEx(Addr = 0x20000000, Type = 0xFFFFFFF2)  returns 0x00000009 (0000ms, 0433ms total)
T02CC 000:876 JLINK_Go() -- CPU_ReadMem(4 bytes @ 0xE0001000) (0003ms, 0436ms total)
T02CC 000:880 JLINK_IsHalted()  returns FALSE (0000ms, 0437ms total)
T02CC 000:887 JLINK_IsHalted()  returns FALSE (0001ms, 0438ms total)
T02CC 000:890 JLINK_IsHalted()  returns FALSE (0000ms, 0437ms total)
T02CC 000:892 JLINK_IsHalted()  returns FALSE (0000ms, 0437ms total)
T02CC 000:894 JLINK_IsHalted()  returns FALSE (0000ms, 0437ms total)
T02CC 000:899 JLINK_IsHalted()  returns FALSE (0001ms, 0438ms total)
T02CC 000:902 JLINK_IsHalted()  returns FALSE (0000ms, 0437ms total)
T02CC 000:904 JLINK_IsHalted()  returns FALSE (0000ms, 0437ms total)
T02CC 000:906 JLINK_IsHalted()  returns FALSE (0000ms, 0437ms total)
T02CC 000:908 JLINK_IsHalted()  returns FALSE (0000ms, 0437ms total)
T02CC 000:914 JLINK_IsHalted() -- CPU_ReadMem(2 bytes @ 0x20000000)  returns TRUE (0004ms, 0441ms total)
T02CC 000:918 JLINK_ReadReg(R15 (PC))  returns 0x20000000 (0000ms, 0437ms total)
T02CC 000:918 JLINK_ClrBPEx(BPHandle = 0x00000009)  returns 0x00 (0000ms, 0437ms total)
T02CC 000:918 JLINK_ReadReg(R0)  returns 0x00000000 (0000ms, 0437ms total)
T02CC 000:919 JLINK_WriteMem(0x20000164, 0x0400 Bytes, ...) - Data: 00 F0 30 00 92 49 08 80 90 48 00 88 00 F4 40 50 ... -- CPU_WriteMem(1024 bytes @ 0x20000164)  returns 0x400 (0013ms, 0450ms total)
T02CC 000:932 JLINK_WriteReg(R0, 0x08001400)  returns 0x00 (0000ms, 0450ms total)
T02CC 000:932 JLINK_WriteReg(R1, 0x00000400)  returns 0x00 (0000ms, 0450ms total)
T02CC 000:932 JLINK_WriteReg(R2, 0x20000164)  returns 0x00 (0000ms, 0450ms total)
T02CC 000:932 JLINK_WriteReg(R3, 0x00000000)  returns 0x00 (0000ms, 0450ms total)
T02CC 000:932 JLINK_WriteReg(R4, 0x00000000)  returns 0x00 (0000ms, 0450ms total)
T02CC 000:932 JLINK_WriteReg(R5, 0x00000000)  returns 0x00 (0000ms, 0450ms total)
T02CC 000:932 JLINK_WriteReg(R6, 0x00000000)  returns 0x00 (0000ms, 0450ms total)
T02CC 000:932 JLINK_WriteReg(R7, 0x00000000)  returns 0x00 (0000ms, 0450ms total)
T02CC 000:932 JLINK_WriteReg(R8, 0x00000000)  returns 0x00 (0000ms, 0450ms total)
T02CC 000:932 JLINK_WriteReg(R9, 0x20000160)  returns 0x00 (0000ms, 0450ms total)
T02CC 000:932 JLINK_WriteReg(R10, 0x00000000)  returns 0x00 (0000ms, 0450ms total)
T02CC 000:932 JLINK_WriteReg(R11, 0x00000000)  returns 0x00 (0000ms, 0450ms total)
T02CC 000:932 JLINK_WriteReg(R12, 0x00000000)  returns 0x00 (0000ms, 0450ms total)
T02CC 000:932 JLINK_WriteReg(R13 (SP), 0x20000800)  returns 0x00 (0000ms, 0450ms total)
T02CC 000:932 JLINK_WriteReg(R14, 0x20000001)  returns 0x00 (0000ms, 0450ms total)
T02CC 000:932 JLINK_WriteReg(R15 (PC), 0x200000F4)  returns 0x00 (0000ms, 0450ms total)
T02CC 000:932 JLINK_WriteReg(XPSR, 0x01000000)  returns 0x00 (0000ms, 0450ms total)
T02CC 000:932 JLINK_WriteReg(MSP, 0x20000800)  returns 0x00 (0000ms, 0450ms total)
T02CC 000:932 JLINK_WriteReg(PSP, 0x20000800)  returns 0x00 (0000ms, 0450ms total)
T02CC 000:932 JLINK_WriteReg(CFBP, 0x00000000)  returns 0x00 (0000ms, 0450ms total)
T02CC 000:932 JLINK_SetBPEx(Addr = 0x20000000, Type = 0xFFFFFFF2)  returns 0x0000000A (0000ms, 0450ms total)
T02CC 000:932 JLINK_Go() -- CPU_ReadMem(4 bytes @ 0xE0001000) (0004ms, 0454ms total)
T02CC 000:936 JLINK_IsHalted()  returns FALSE (0000ms, 0454ms total)
T02CC 000:941 JLINK_IsHalted()  returns FALSE (0000ms, 0454ms total)
T02CC 000:946 JLINK_IsHalted()  returns FALSE (0000ms, 0454ms total)
T02CC 000:948 JLINK_IsHalted()  returns FALSE (0000ms, 0454ms total)
T02CC 000:951 JLINK_IsHalted()  returns FALSE (0000ms, 0454ms total)
T02CC 000:956 JLINK_IsHalted()  returns FALSE (0000ms, 0454ms total)
T02CC 000:958 JLINK_IsHalted()  returns FALSE (0000ms, 0454ms total)
T02CC 000:963 JLINK_IsHalted()  returns FALSE (0001ms, 0455ms total)
T02CC 000:965 JLINK_IsHalted()  returns FALSE (0001ms, 0455ms total)
T02CC 000:970 JLINK_IsHalted() -- CPU_ReadMem(2 bytes @ 0x20000000)  returns TRUE (0004ms, 0458ms total)
T02CC 000:974 JLINK_ReadReg(R15 (PC))  returns 0x20000000 (0000ms, 0454ms total)
T02CC 000:974 JLINK_ClrBPEx(BPHandle = 0x0000000A)  returns 0x00 (0000ms, 0454ms total)
T02CC 000:974 JLINK_ReadReg(R0)  returns 0x00000000 (0000ms, 0454ms total)
T02CC 000:975 JLINK_WriteMem(0x20000164, 0x0400 Bytes, ...) - Data: 28 31 88 42 08 D1 12 49 09 1F 09 68 41 F4 70 61 ... -- CPU_WriteMem(1024 bytes @ 0x20000164)  returns 0x400 (0013ms, 0467ms total)
T02CC 000:988 JLINK_WriteReg(R0, 0x08001800)  returns 0x00 (0000ms, 0467ms total)
T02CC 000:988 JLINK_WriteReg(R1, 0x00000400)  returns 0x00 (0000ms, 0467ms total)
T02CC 000:988 JLINK_WriteReg(R2, 0x20000164)  returns 0x00 (0000ms, 0467ms total)
T02CC 000:988 JLINK_WriteReg(R3, 0x00000000)  returns 0x00 (0000ms, 0467ms total)
T02CC 000:988 JLINK_WriteReg(R4, 0x00000000)  returns 0x00 (0000ms, 0467ms total)
T02CC 000:988 JLINK_WriteReg(R5, 0x00000000)  returns 0x00 (0000ms, 0467ms total)
T02CC 000:988 JLINK_WriteReg(R6, 0x00000000)  returns 0x00 (0000ms, 0467ms total)
T02CC 000:988 JLINK_WriteReg(R7, 0x00000000)  returns 0x00 (0000ms, 0467ms total)
T02CC 000:988 JLINK_WriteReg(R8, 0x00000000)  returns 0x00 (0000ms, 0467ms total)
T02CC 000:988 JLINK_WriteReg(R9, 0x20000160)  returns 0x00 (0000ms, 0467ms total)
T02CC 000:988 JLINK_WriteReg(R10, 0x00000000)  returns 0x00 (0000ms, 0467ms total)
T02CC 000:988 JLINK_WriteReg(R11, 0x00000000)  returns 0x00 (0000ms, 0467ms total)
T02CC 000:988 JLINK_WriteReg(R12, 0x00000000)  returns 0x00 (0000ms, 0467ms total)
T02CC 000:988 JLINK_WriteReg(R13 (SP), 0x20000800)  returns 0x00 (0000ms, 0467ms total)
T02CC 000:988 JLINK_WriteReg(R14, 0x20000001)  returns 0x00 (0000ms, 0467ms total)
T02CC 000:988 JLINK_WriteReg(R15 (PC), 0x200000F4)  returns 0x00 (0000ms, 0467ms total)
T02CC 000:988 JLINK_WriteReg(XPSR, 0x01000000)  returns 0x00 (0000ms, 0467ms total)
T02CC 000:988 JLINK_WriteReg(MSP, 0x20000800)  returns 0x00 (0000ms, 0467ms total)
T02CC 000:988 JLINK_WriteReg(PSP, 0x20000800)  returns 0x00 (0000ms, 0467ms total)
T02CC 000:988 JLINK_WriteReg(CFBP, 0x00000000)  returns 0x00 (0000ms, 0467ms total)
T02CC 000:988 JLINK_SetBPEx(Addr = 0x20000000, Type = 0xFFFFFFF2)  returns 0x0000000B (0000ms, 0467ms total)
T02CC 000:988 JLINK_Go() -- CPU_ReadMem(4 bytes @ 0xE0001000) (0003ms, 0470ms total)
T02CC 000:991 JLINK_IsHalted()  returns FALSE (0001ms, 0471ms total)
T02CC 000:998 JLINK_IsHalted()  returns FALSE (0000ms, 0470ms total)
T02CC 001:002 JLINK_IsHalted()  returns FALSE (0000ms, 0470ms total)
T02CC 001:004 JLINK_IsHalted()  returns FALSE (0000ms, 0470ms total)
T02CC 001:006 JLINK_IsHalted()  returns FALSE (0001ms, 0471ms total)
T02CC 001:011 JLINK_IsHalted()  returns FALSE (0000ms, 0470ms total)
T02CC 001:013 JLINK_IsHalted()  returns FALSE (0000ms, 0470ms total)
T02CC 001:015 JLINK_IsHalted()  returns FALSE (0000ms, 0470ms total)
T02CC 001:019 JLINK_IsHalted()  returns FALSE (0001ms, 0471ms total)
T02CC 001:024 JLINK_IsHalted() -- CPU_ReadMem(2 bytes @ 0x20000000)  returns TRUE (0004ms, 0474ms total)
T02CC 001:028 JLINK_ReadReg(R15 (PC))  returns 0x20000000 (0000ms, 0470ms total)
T02CC 001:028 JLINK_ClrBPEx(BPHandle = 0x0000000B)  returns 0x00 (0000ms, 0470ms total)
T02CC 001:028 JLINK_ReadReg(R0)  returns 0x00000000 (0000ms, 0470ms total)
T02CC 001:029 JLINK_WriteMem(0x20000164, 0x0400 Bytes, ...) - Data: 00 68 C0 88 00 90 21 48 00 68 00 8A 00 99 88 42 ... -- CPU_WriteMem(1024 bytes @ 0x20000164)  returns 0x400 (0012ms, 0482ms total)
T02CC 001:042 JLINK_WriteReg(R0, 0x08001C00)  returns 0x00 (0000ms, 0482ms total)
T02CC 001:042 JLINK_WriteReg(R1, 0x00000400)  returns 0x00 (0000ms, 0482ms total)
T02CC 001:042 JLINK_WriteReg(R2, 0x20000164)  returns 0x00 (0000ms, 0482ms total)
T02CC 001:042 JLINK_WriteReg(R3, 0x00000000)  returns 0x00 (0000ms, 0482ms total)
T02CC 001:042 JLINK_WriteReg(R4, 0x00000000)  returns 0x00 (0000ms, 0482ms total)
T02CC 001:042 JLINK_WriteReg(R5, 0x00000000)  returns 0x00 (0000ms, 0482ms total)
T02CC 001:042 JLINK_WriteReg(R6, 0x00000000)  returns 0x00 (0000ms, 0482ms total)
T02CC 001:042 JLINK_WriteReg(R7, 0x00000000)  returns 0x00 (0000ms, 0482ms total)
T02CC 001:042 JLINK_WriteReg(R8, 0x00000000)  returns 0x00 (0000ms, 0482ms total)
T02CC 001:042 JLINK_WriteReg(R9, 0x20000160)  returns 0x00 (0000ms, 0482ms total)
T02CC 001:042 JLINK_WriteReg(R10, 0x00000000)  returns 0x00 (0000ms, 0482ms total)
T02CC 001:042 JLINK_WriteReg(R11, 0x00000000)  returns 0x00 (0000ms, 0482ms total)
T02CC 001:042 JLINK_WriteReg(R12, 0x00000000)  returns 0x00 (0000ms, 0482ms total)
T02CC 001:042 JLINK_WriteReg(R13 (SP), 0x20000800)  returns 0x00 (0000ms, 0482ms total)
T02CC 001:042 JLINK_WriteReg(R14, 0x20000001)  returns 0x00 (0000ms, 0482ms total)
T02CC 001:042 JLINK_WriteReg(R15 (PC), 0x200000F4)  returns 0x00 (0000ms, 0482ms total)
T02CC 001:042 JLINK_WriteReg(XPSR, 0x01000000)  returns 0x00 (0000ms, 0482ms total)
T02CC 001:042 JLINK_WriteReg(MSP, 0x20000800)  returns 0x00 (0000ms, 0482ms total)
T02CC 001:042 JLINK_WriteReg(PSP, 0x20000800)  returns 0x00 (0000ms, 0482ms total)
T02CC 001:042 JLINK_WriteReg(CFBP, 0x00000000)  returns 0x00 (0000ms, 0482ms total)
T02CC 001:042 JLINK_SetBPEx(Addr = 0x20000000, Type = 0xFFFFFFF2)  returns 0x0000000C (0000ms, 0482ms total)
T02CC 001:042 JLINK_Go() -- CPU_ReadMem(4 bytes @ 0xE0001000) (0003ms, 0485ms total)
T02CC 001:045 JLINK_IsHalted()  returns FALSE (0001ms, 0486ms total)
T02CC 001:058 JLINK_IsHalted()  returns FALSE (0000ms, 0485ms total)
T02CC 001:060 JLINK_IsHalted()  returns FALSE (0001ms, 0486ms total)
T02CC 001:063 JLINK_IsHalted()  returns FALSE (0000ms, 0485ms total)
T02CC 001:068 JLINK_IsHalted()  returns FALSE (0001ms, 0486ms total)
T02CC 001:071 JLINK_IsHalted()  returns FALSE (0000ms, 0485ms total)
T02CC 001:075 JLINK_IsHalted()  returns FALSE (0000ms, 0485ms total)
T02CC 001:077 JLINK_IsHalted() -- CPU_ReadMem(2 bytes @ 0x20000000)  returns TRUE (0004ms, 0489ms total)
T02CC 001:081 JLINK_ReadReg(R15 (PC))  returns 0x20000000 (0000ms, 0485ms total)
T02CC 001:081 JLINK_ClrBPEx(BPHandle = 0x0000000C)  returns 0x00 (0000ms, 0485ms total)
T02CC 001:081 JLINK_ReadReg(R0)  returns 0x00000000 (0000ms, 0485ms total)
T02CC 001:082 JLINK_WriteMem(0x20000164, 0x0400 Bytes, ...) - Data: 70 47 00 00 00 50 00 40 01 46 05 48 00 68 80 B2 ... -- CPU_WriteMem(1024 bytes @ 0x20000164)  returns 0x400 (0013ms, 0498ms total)
T02CC 001:095 JLINK_WriteReg(R0, 0x08002000)  returns 0x00 (0000ms, 0498ms total)
T02CC 001:095 JLINK_WriteReg(R1, 0x00000400)  returns 0x00 (0000ms, 0498ms total)
T02CC 001:095 JLINK_WriteReg(R2, 0x20000164)  returns 0x00 (0000ms, 0498ms total)
T02CC 001:095 JLINK_WriteReg(R3, 0x00000000)  returns 0x00 (0000ms, 0498ms total)
T02CC 001:095 JLINK_WriteReg(R4, 0x00000000)  returns 0x00 (0000ms, 0498ms total)
T02CC 001:095 JLINK_WriteReg(R5, 0x00000000)  returns 0x00 (0000ms, 0498ms total)
T02CC 001:095 JLINK_WriteReg(R6, 0x00000000)  returns 0x00 (0000ms, 0498ms total)
T02CC 001:095 JLINK_WriteReg(R7, 0x00000000)  returns 0x00 (0000ms, 0498ms total)
T02CC 001:095 JLINK_WriteReg(R8, 0x00000000)  returns 0x00 (0000ms, 0498ms total)
T02CC 001:095 JLINK_WriteReg(R9, 0x20000160)  returns 0x00 (0000ms, 0498ms total)
T02CC 001:095 JLINK_WriteReg(R10, 0x00000000)  returns 0x00 (0000ms, 0498ms total)
T02CC 001:095 JLINK_WriteReg(R11, 0x00000000)  returns 0x00 (0000ms, 0498ms total)
T02CC 001:095 JLINK_WriteReg(R12, 0x00000000)  returns 0x00 (0000ms, 0498ms total)
T02CC 001:095 JLINK_WriteReg(R13 (SP), 0x20000800)  returns 0x00 (0000ms, 0498ms total)
T02CC 001:095 JLINK_WriteReg(R14, 0x20000001)  returns 0x00 (0000ms, 0498ms total)
T02CC 001:095 JLINK_WriteReg(R15 (PC), 0x200000F4)  returns 0x00 (0000ms, 0498ms total)
T02CC 001:095 JLINK_WriteReg(XPSR, 0x01000000)  returns 0x00 (0000ms, 0498ms total)
T02CC 001:095 JLINK_WriteReg(MSP, 0x20000800)  returns 0x00 (0000ms, 0498ms total)
T02CC 001:095 JLINK_WriteReg(PSP, 0x20000800)  returns 0x00 (0000ms, 0498ms total)
T02CC 001:095 JLINK_WriteReg(CFBP, 0x00000000)  returns 0x00 (0000ms, 0498ms total)
T02CC 001:095 JLINK_SetBPEx(Addr = 0x20000000, Type = 0xFFFFFFF2)  returns 0x0000000D (0000ms, 0498ms total)
T02CC 001:095 JLINK_Go() -- CPU_ReadMem(4 bytes @ 0xE0001000) (0003ms, 0501ms total)
T02CC 001:098 JLINK_IsHalted()  returns FALSE (0001ms, 0502ms total)
T02CC 001:109 JLINK_IsHalted()  returns FALSE (0000ms, 0501ms total)
T02CC 001:111 JLINK_IsHalted()  returns FALSE (0001ms, 0502ms total)
T02CC 001:116 JLINK_IsHalted()  returns FALSE (0000ms, 0501ms total)
T02CC 001:118 JLINK_IsHalted()  returns FALSE (0000ms, 0501ms total)
T02CC 001:122 JLINK_IsHalted()  returns FALSE (0000ms, 0501ms total)
T02CC 001:124 JLINK_IsHalted()  returns FALSE (0001ms, 0502ms total)
T02CC 001:127 JLINK_IsHalted()  returns FALSE (0000ms, 0501ms total)
T02CC 001:135 JLINK_IsHalted() -- CPU_ReadMem(2 bytes @ 0x20000000)  returns TRUE (0004ms, 0505ms total)
T02CC 001:139 JLINK_ReadReg(R15 (PC))  returns 0x20000000 (0000ms, 0501ms total)
T02CC 001:139 JLINK_ClrBPEx(BPHandle = 0x0000000D)  returns 0x00 (0000ms, 0501ms total)
T02CC 001:139 JLINK_ReadReg(R0)  returns 0x00000000 (0000ms, 0501ms total)
T02CC 001:140 JLINK_WriteMem(0x20000164, 0x0400 Bytes, ...) - Data: F8 01 00 20 10 B5 04 48 00 68 04 49 88 42 02 D0 ... -- CPU_WriteMem(1024 bytes @ 0x20000164)  returns 0x400 (0013ms, 0514ms total)
T02CC 001:153 JLINK_WriteReg(R0, 0x08002400)  returns 0x00 (0000ms, 0514ms total)
T02CC 001:153 JLINK_WriteReg(R1, 0x00000400)  returns 0x00 (0000ms, 0514ms total)
T02CC 001:153 JLINK_WriteReg(R2, 0x20000164)  returns 0x00 (0000ms, 0514ms total)
T02CC 001:153 JLINK_WriteReg(R3, 0x00000000)  returns 0x00 (0000ms, 0514ms total)
T02CC 001:153 JLINK_WriteReg(R4, 0x00000000)  returns 0x00 (0000ms, 0514ms total)
T02CC 001:153 JLINK_WriteReg(R5, 0x00000000)  returns 0x00 (0000ms, 0514ms total)
T02CC 001:153 JLINK_WriteReg(R6, 0x00000000)  returns 0x00 (0000ms, 0514ms total)
T02CC 001:153 JLINK_WriteReg(R7, 0x00000000)  returns 0x00 (0000ms, 0514ms total)
T02CC 001:153 JLINK_WriteReg(R8, 0x00000000)  returns 0x00 (0000ms, 0514ms total)
T02CC 001:153 JLINK_WriteReg(R9, 0x20000160)  returns 0x00 (0000ms, 0514ms total)
T02CC 001:153 JLINK_WriteReg(R10, 0x00000000)  returns 0x00 (0000ms, 0514ms total)
T02CC 001:153 JLINK_WriteReg(R11, 0x00000000)  returns 0x00 (0000ms, 0514ms total)
T02CC 001:153 JLINK_WriteReg(R12, 0x00000000)  returns 0x00 (0000ms, 0514ms total)
T02CC 001:153 JLINK_WriteReg(R13 (SP), 0x20000800)  returns 0x00 (0000ms, 0514ms total)
T02CC 001:153 JLINK_WriteReg(R14, 0x20000001)  returns 0x00 (0000ms, 0514ms total)
T02CC 001:153 JLINK_WriteReg(R15 (PC), 0x200000F4)  returns 0x00 (0000ms, 0514ms total)
T02CC 001:153 JLINK_WriteReg(XPSR, 0x01000000)  returns 0x00 (0000ms, 0514ms total)
T02CC 001:153 JLINK_WriteReg(MSP, 0x20000800)  returns 0x00 (0000ms, 0514ms total)
T02CC 001:153 JLINK_WriteReg(PSP, 0x20000800)  returns 0x00 (0000ms, 0514ms total)
T02CC 001:153 JLINK_WriteReg(CFBP, 0x00000000)  returns 0x00 (0000ms, 0514ms total)
T02CC 001:153 JLINK_SetBPEx(Addr = 0x20000000, Type = 0xFFFFFFF2)  returns 0x0000000E (0000ms, 0514ms total)
T02CC 001:153 JLINK_Go() -- CPU_ReadMem(4 bytes @ 0xE0001000) (0004ms, 0518ms total)
T02CC 001:157 JLINK_IsHalted()  returns FALSE (0000ms, 0518ms total)
T02CC 001:161 JLINK_IsHalted()  returns FALSE (0000ms, 0518ms total)
T02CC 001:163 JLINK_IsHalted()  returns FALSE (0000ms, 0518ms total)
T02CC 001:165 JLINK_IsHalted()  returns FALSE (0000ms, 0518ms total)
T02CC 001:167 JLINK_IsHalted()  returns FALSE (0001ms, 0519ms total)
T02CC 001:169 JLINK_IsHalted()  returns FALSE (0001ms, 0519ms total)
T02CC 001:172 JLINK_IsHalted()  returns FALSE (0001ms, 0519ms total)
T02CC 001:174 JLINK_IsHalted()  returns FALSE (0001ms, 0519ms total)
T02CC 001:180 JLINK_IsHalted()  returns FALSE (0000ms, 0518ms total)
T02CC 001:182 JLINK_IsHalted()  returns FALSE (0001ms, 0519ms total)
T02CC 001:187 JLINK_IsHalted() -- CPU_ReadMem(2 bytes @ 0x20000000)  returns TRUE (0004ms, 0522ms total)
T02CC 001:191 JLINK_ReadReg(R15 (PC))  returns 0x20000000 (0000ms, 0518ms total)
T02CC 001:191 JLINK_ClrBPEx(BPHandle = 0x0000000E)  returns 0x00 (0000ms, 0518ms total)
T02CC 001:191 JLINK_ReadReg(R0)  returns 0x00000000 (0000ms, 0518ms total)
T02CC 001:192 JLINK_WriteMem(0x20000164, 0x0400 Bytes, ...) - Data: 01 24 0B 48 04 60 00 20 0A 49 08 80 08 46 00 88 ... -- CPU_WriteMem(1024 bytes @ 0x20000164)  returns 0x400 (0013ms, 0531ms total)
T02CC 001:205 JLINK_WriteReg(R0, 0x08002800)  returns 0x00 (0000ms, 0531ms total)
T02CC 001:205 JLINK_WriteReg(R1, 0x00000400)  returns 0x00 (0000ms, 0531ms total)
T02CC 001:205 JLINK_WriteReg(R2, 0x20000164)  returns 0x00 (0000ms, 0531ms total)
T02CC 001:205 JLINK_WriteReg(R3, 0x00000000)  returns 0x00 (0000ms, 0531ms total)
T02CC 001:205 JLINK_WriteReg(R4, 0x00000000)  returns 0x00 (0000ms, 0531ms total)
T02CC 001:205 JLINK_WriteReg(R5, 0x00000000)  returns 0x00 (0000ms, 0531ms total)
T02CC 001:205 JLINK_WriteReg(R6, 0x00000000)  returns 0x00 (0000ms, 0531ms total)
T02CC 001:205 JLINK_WriteReg(R7, 0x00000000)  returns 0x00 (0000ms, 0531ms total)
T02CC 001:205 JLINK_WriteReg(R8, 0x00000000)  returns 0x00 (0000ms, 0531ms total)
T02CC 001:205 JLINK_WriteReg(R9, 0x20000160)  returns 0x00 (0000ms, 0531ms total)
T02CC 001:205 JLINK_WriteReg(R10, 0x00000000)  returns 0x00 (0000ms, 0531ms total)
T02CC 001:205 JLINK_WriteReg(R11, 0x00000000)  returns 0x00 (0000ms, 0531ms total)
T02CC 001:205 JLINK_WriteReg(R12, 0x00000000)  returns 0x00 (0000ms, 0531ms total)
